T38B8 2087:852.444   SEGGER J-Link V6.60c Log File
T38B8 2087:852.508   DLL Compiled: Dec 23 2019 16:14:31
T38B8 2087:852.520   Logging started @ 2020-03-04 14:22
T38B8 2087:852.536 JLINK_SetWarnOutHandler(...)
T38B8 2087:852.546 - 0.015ms
T38B8 2087:852.559 JLINK_OpenEx(...)
T38B8 2087:867.940   Firmware: J-Link V9 compiled Dec 13 2019 11:14:50
T38B8 2087:890.212   Hardware: V9.50
T38B8 2087:890.232   S/N: 59502773
T38B8 2087:890.246   OEM: SEGGER
T38B8 2087:890.261   Feature(s): GDB, RDI, FlashBP, FlashDL, JFlash
T38B8 2087:891.936   TELNET listener socket opened on port 19021
T38B8 2087:892.183   WEBSRV Starting webserver
T38B8 2087:892.333   WEBSRV Webserver running on local port 19080
T38B8 2087:892.351 - 39.797ms returns "O.K."
T38B8 2087:893.591 JLINK_GetEmuCaps()
T38B8 2087:893.603 - 0.016ms returns 0xB9FF7BBF
T38B8 2087:893.617 JLINK_TIF_GetAvailable(...)
T38B8 2087:893.793 - 0.184ms
T38B8 2087:893.812 JLINK_SetErrorOutHandler(...)
T38B8 2087:893.821 - 0.014ms
T38B8 2087:893.839 JLINK_ExecCommand("ProjectFile = "E:\code\c\mcu\nRF\freertos_ble_hrs\JLinkSettings.ini"", ...). 
T38B8 2087:896.009 - 2.180ms returns 0x00
T38B8 2087:896.052 JLINK_ExecCommand("Device = nRF52832_xxAA", ...). 
T38B8 2087:896.536   Device "NRF52832_XXAA" selected.
T38B8 2087:897.391 - 1.334ms returns 0x00
T38B8 2087:897.411 JLINK_ExecCommand("DisableConnectionTimeout", ...). 
T38B8 2087:897.430 - 0.011ms returns 0x01
T38B8 2087:897.445 JLINK_GetHardwareVersion()
T38B8 2087:897.455 - 0.015ms returns 0x17318
T38B8 2087:897.468 JLINK_GetDLLVersion()  returns 66003
T38B8 2087:897.483 JLINK_GetFirmwareString(...)
T38B8 2087:897.493 - 0.014ms
T38B8 2087:897.523 JLINK_GetDLLVersion()  returns 66003
T38B8 2087:897.536 JLINK_GetCompileDateTime()
T38B8 2087:897.545 - 0.014ms
T38B8 2087:897.563 JLINK_GetFirmwareString(...)
T38B8 2087:897.573 - 0.015ms
T38B8 2087:897.590 JLINK_GetHardwareVersion()
T38B8 2087:897.599 - 0.014ms returns 0x17318
T38B8 2087:897.635 JLINK_TIF_Select(JLINKARM_TIF_SWD)
T38B8 2087:900.552 - 2.926ms returns 0x00
T38B8 2087:900.576 JLINK_SetSpeed(5000)
T38B8 2087:900.671 - 0.101ms
T38B8 2087:900.688 JLINK_GetId()
T38B8 2087:900.869   InitTarget() start
T38B8 2087:900.886    J-Link Script File: Executing InitTarget()
T38B8 2087:908.919   InitTarget() end
T38B8 2087:910.517   Found SW-DP with ID 0x2BA01477
T38B8 2087:920.496   Scanning AP map to find all available APs
T38B8 2087:931.498   AP[2]: Stopped AP scan as end of AP map has been reached
T38B8 2087:931.522   AP[0]: AHB-AP (IDR: 0x24770011)
T38B8 2087:931.541   AP[1]: JTAG-AP (IDR: 0x02880000)
T38B8 2087:931.560   Iterating through AP map to find AHB-AP to use
T38B8 2087:948.499   AP[0]: Core found
T38B8 2087:948.522   AP[0]: AHB-AP ROM base: 0xE00FF000
T38B8 2087:956.517   CPUID register: 0x410FC241. Implementer code: 0x41 (ARM)
T38B8 2087:956.545   Found Cortex-M4 r0p1, Little endian.
T38B8 2088:058.492    -- Max. mem block: 0x00010BD0
T38B8 2088:058.518    -- CPU_ReadMem(4 bytes @ 0xE000EDF0)
T38B8 2088:059.495    -- CPU_WriteMem(4 bytes @ 0xE000EDF0)
T38B8 2088:059.914    -- CPU_ReadMem(4 bytes @ 0xE0002000)
T38B8 2088:061.934   FPUnit: 6 code (BP) slots and 2 literal slots
T38B8 2088:061.957    -- CPU_ReadMem(4 bytes @ 0xE000EDFC)
T38B8 2088:062.917    -- CPU_WriteMem(4 bytes @ 0xE000EDFC)
T38B8 2088:063.496    -- CPU_ReadMem(4 bytes @ 0xE0001000)
T38B8 2088:063.914    -- CPU_WriteMem(4 bytes @ 0xE0001000)
T38B8 2088:064.914    -- CPU_ReadMem(4 bytes @ 0xE000ED88)
T38B8 2088:065.916    -- CPU_WriteMem(4 bytes @ 0xE000ED88)
T38B8 2088:066.492    -- CPU_ReadMem(4 bytes @ 0xE000ED88)
T38B8 2088:067.494    -- CPU_WriteMem(4 bytes @ 0xE000ED88)
T38B8 2088:068.504   CoreSight components:
T38B8 2088:068.527   ROMTbl[0] @ E00FF000
T38B8 2088:068.542    -- CPU_ReadMem(16 bytes @ 0xE00FF000)
T38B8 2088:069.504    -- CPU_ReadMem(16 bytes @ 0xE000EFF0)
T38B8 2088:069.924    -- CPU_ReadMem(16 bytes @ 0xE000EFE0)
T38B8 2088:070.513   ROMTbl[0][0]: E000E000, CID: B105E00D, PID: 000BB00C SCS-M7
T38B8 2088:070.531    -- CPU_ReadMem(16 bytes @ 0xE0001FF0)
T38B8 2088:071.505    -- CPU_ReadMem(16 bytes @ 0xE0001FE0)
T38B8 2088:071.935   ROMTbl[0][1]: E0001000, CID: B105E00D, PID: 003BB002 DWT
T38B8 2088:071.953    -- CPU_ReadMem(16 bytes @ 0xE0002FF0)
T38B8 2088:072.923    -- CPU_ReadMem(16 bytes @ 0xE0002FE0)
T38B8 2088:073.514   ROMTbl[0][2]: E0002000, CID: B105E00D, PID: 002BB003 FPB
T38B8 2088:073.532    -- CPU_ReadMem(16 bytes @ 0xE0000FF0)
T38B8 2088:074.505    -- CPU_ReadMem(16 bytes @ 0xE0000FE0)
T38B8 2088:074.933   ROMTbl[0][3]: E0000000, CID: B105E00D, PID: 003BB001 ITM
T38B8 2088:074.951    -- CPU_ReadMem(16 bytes @ 0xE00FF010)
T38B8 2088:075.926    -- CPU_ReadMem(16 bytes @ 0xE0040FF0)
T38B8 2088:076.504    -- CPU_ReadMem(16 bytes @ 0xE0040FE0)
T38B8 2088:076.932   ROMTbl[0][4]: E0040000, CID: B105900D, PID: 000BB9A1 TPIU
T38B8 2088:076.951    -- CPU_ReadMem(16 bytes @ 0xE0041FF0)
T38B8 2088:077.923    -- CPU_ReadMem(16 bytes @ 0xE0041FE0)
T38B8 2088:078.513   ROMTbl[0][5]: E0041000, CID: B105900D, PID: 000BB925 ETM
T38B8 2088:078.745 - 178.064ms   returns 0x2BA01477
T38B8 2088:078.767 JLINK_GetDLLVersion()  returns 66003
T38B8 2088:078.832 JLINK_CORE_GetFound()
T38B8 2088:078.844 - 0.016ms returns 0xE0000FF
T38B8 2088:078.858 JLINK_GetDebugInfo(0x100 = JLINKARM_ROM_TABLE_ADDR_INDEX)
T38B8 2088:078.869   Value=0xE00FF000
T38B8 2088:078.883 - 0.030ms returns 0x00
T38B8 2088:078.904 JLINK_GetDebugInfo(0x100 = JLINKARM_ROM_TABLE_ADDR_INDEX)
T38B8 2088:078.915   Value=0xE00FF000
T38B8 2088:078.929 - 0.029ms returns 0x00
T38B8 2088:078.940 JLINK_GetDebugInfo(0x101 = JLINKARM_DEBUG_INFO_ETM_ADDR_INDEX)
T38B8 2088:078.951   Value=0xE0041000
T38B8 2088:078.964 - 0.028ms returns 0x00
T38B8 2088:078.979   JLINK_ReadMemEx(0xE0041FD0, 0x0020 Bytes, ..., Flags = 0x02000004)
T38B8 2088:079.000    -- CPU_ReadMem(32 bytes @ 0xE0041FD0)
T38B8 2088:079.516   Data:  04 00 00 00 00 00 00 00 00 00 00 00 00 00 00 00 ...
T38B8 2088:079.533 - 0.559ms returns 0x20
T38B8 2088:079.546 JLINK_GetDebugInfo(0x102 = JLINKARM_DEBUG_INFO_MTB_ADDR_INDEX)
T38B8 2088:079.557   Value=0x00000000
T38B8 2088:079.570 - 0.029ms returns 0x00
T38B8 2088:079.582 JLINK_GetDebugInfo(0x103 = JLINKARM_DEBUG_INFO_TPIU_ADDR_INDEX)
T38B8 2088:079.592   Value=0xE0040000
T38B8 2088:079.606 - 0.028ms returns 0x00
T38B8 2088:079.617 JLINK_GetDebugInfo(0x104 = JLINKARM_DEBUG_INFO_ITM_ADDR_INDEX)
T38B8 2088:079.627   Value=0xE0000000
T38B8 2088:079.641 - 0.028ms returns 0x00
T38B8 2088:079.652 JLINK_GetDebugInfo(0x105 = JLINKARM_DEBUG_INFO_DWT_ADDR_INDEX)
T38B8 2088:079.663   Value=0xE0001000
T38B8 2088:079.676 - 0.028ms returns 0x00
T38B8 2088:079.688 JLINK_GetDebugInfo(0x106 = JLINKARM_DEBUG_INFO_FPB_ADDR_INDEX)
T38B8 2088:079.698   Value=0xE0002000
T38B8 2088:079.711 - 0.028ms returns 0x00
T38B8 2088:079.723 JLINK_GetDebugInfo(0x107 = JLINKARM_DEBUG_INFO_NVIC_ADDR_INDEX)
T38B8 2088:079.733   Value=0xE000E000
T38B8 2088:079.747 - 0.028ms returns 0x00
T38B8 2088:079.758 JLINK_GetDebugInfo(0x10C = JLINKARM_DEBUG_INFO_DBG_ADDR_INDEX)
T38B8 2088:079.768   Value=0xE000EDF0
T38B8 2088:079.782 - 0.028ms returns 0x00
T38B8 2088:079.793 JLINK_GetDebugInfo(0x01 = Unknown)
T38B8 2088:079.803   Value=0x00000001
T38B8 2088:079.817 - 0.028ms returns 0x00
T38B8 2088:079.831   JLINK_ReadMemU32(0xE000ED00, 0x0001 Items, ...)
T38B8 2088:079.848    -- CPU_ReadMem(4 bytes @ 0xE000ED00)
T38B8 2088:080.920   Data:  41 C2 0F 41
T38B8 2088:080.937    - CPUID
T38B8 2088:080.951 - 1.125ms returns 1
T38B8 2088:080.964 JLINK_GetDebugInfo(0x10F = JLINKARM_DEBUG_INFO_HAS_CORTEX_M_SECURITY_EXT_INDEX)
T38B8 2088:080.974   Value=0x00000000
T38B8 2088:080.988 - 0.029ms returns 0x00
T38B8 2088:081.004 JLINK_SetResetType(JLINKARM_CM3_RESET_TYPE_NORMAL)
T38B8 2088:081.014 - 0.015ms returns JLINKARM_CM3_RESET_TYPE_NORMAL
T38B8 2088:081.026 JLINK_Reset()
T38B8 2088:081.042   CPU is running
T38B8 2088:081.057    -- CPU_WriteMem(4 bytes @ 0xE000EDF0)
T38B8 2088:081.335   CPU is running
T38B8 2088:081.353    -- CPU_WriteMem(4 bytes @ 0xE000EDFC)
T38B8 2088:082.505   Reset: Halt core after reset via DEMCR.VC_CORERESET.
T38B8 2088:083.506   Reset: Reset device via AIRCR.SYSRESETREQ.
T38B8 2088:083.526   CPU is running
T38B8 2088:083.541    -- CPU_WriteMem(4 bytes @ 0xE000ED0C)
T38B8 2088:138.498    -- CPU_ReadMem(4 bytes @ 0xE000EDF0)
T38B8 2088:138.919    -- CPU_ReadMem(4 bytes @ 0xE000EDF0)
T38B8 2088:139.497   CPU is running
T38B8 2088:139.515    -- CPU_WriteMem(4 bytes @ 0xE000EDF0)
T38B8 2088:139.916   CPU is running
T38B8 2088:139.935    -- CPU_WriteMem(4 bytes @ 0xE000EDFC)
T38B8 2088:145.559    -- CPU_ReadMem(4 bytes @ 0xE000EDF0)
T38B8 2088:149.614    -- CPU_WriteMem(4 bytes @ 0xE0002000)
T38B8 2088:149.917    -- CPU_ReadMem(4 bytes @ 0xE000EDFC)
T38B8 2088:151.918    -- CPU_ReadMem(4 bytes @ 0xE0001000)
T38B8 2088:152.499 - 71.480ms
T38B8 2088:152.568 JLINK_ReadReg(R15 (PC))
T38B8 2088:152.582 - 0.019ms returns 0x00000A80
T38B8 2088:152.594 JLINK_ReadReg(XPSR)
T38B8 2088:152.605 - 0.015ms returns 0x01000000
T38B8 2088:152.618 JLINK_Halt()
T38B8 2088:152.627 - 0.014ms returns 0x00
T38B8 2088:152.640   JLINK_ReadMemU32(0xE000EDF0, 0x0001 Items, ...)
T38B8 2088:152.658    -- CPU_ReadMem(4 bytes @ 0xE000EDF0)
T38B8 2088:153.505   Data:  03 00 03 00
T38B8 2088:153.526    - DHCSR
T38B8 2088:153.540 - 0.905ms returns 1
T38B8 2088:153.558   JLINK_WriteU32(0xE000EDF0, 0xA05F0003)
T38B8 2088:153.572    - DHCSR
T38B8 2088:153.595    -- CPU_WriteMem(4 bytes @ 0xE000EDF0)
T38B8 2088:154.522 - 0.979ms returns 0
T38B8 2088:154.549   JLINK_WriteU32(0xE000EDFC, 0x01000000)
T38B8 2088:154.566    - DEMCR
T38B8 2088:154.590    -- CPU_WriteMem(4 bytes @ 0xE000EDFC)
T38B8 2088:155.503 - 0.966ms returns 0
T38B8 2088:155.553 JLINK_GetHWStatus(...)
T38B8 2088:156.519 - 0.980ms returns 0x00
T38B8 2088:156.574 JLINK_GetNumBPUnits(Type = 0xFFFFFF00)
T38B8 2088:156.587 - 0.018ms returns 0x06
T38B8 2088:156.599 JLINK_GetNumBPUnits(Type = 0xF0)
T38B8 2088:156.609 - 0.015ms returns 0x2000
T38B8 2088:156.621 JLINK_GetNumWPUnits()
T38B8 2088:156.631 - 0.014ms returns 0x04
T38B8 2088:156.656 JLINK_GetSpeed()
T38B8 2088:156.667 - 0.015ms returns 0xFA0
T38B8 2088:156.687   JLINK_ReadMemU32(0xE000E004, 0x0001 Items, ...)
T38B8 2088:156.708    -- CPU_ReadMem(4 bytes @ 0xE000E004)
T38B8 2088:157.507   Data:  01 00 00 00
T38B8 2088:157.528 - 0.846ms returns 1
T38B8 2088:157.543   JLINK_ReadMemU32(0xE000E004, 0x0001 Items, ...)
T38B8 2088:157.563    -- CPU_ReadMem(4 bytes @ 0xE000E004)
T38B8 2088:157.919   Data:  01 00 00 00
T38B8 2088:157.937 - 0.399ms returns 1
T38B8 2088:157.953 JLINK_WriteMemEx(0xE0001000, 0x001C Bytes, ..., Flags = 0x02000004)
T38B8 2088:157.964   Data:  01 00 00 00 00 00 00 00 00 00 00 00 00 00 00 00 ...
T38B8 2088:158.455    -- CPU_WriteMem(28 bytes @ 0xE0001000)
T38B8 2088:158.916 - 0.971ms returns 0x1C
T38B8 2088:158.950 JLINK_ReadReg(R15 (PC))
T38B8 2088:158.962 - 0.018ms returns 0x00000A80
T38B8 2088:158.974 JLINK_ReadReg(XPSR)
T38B8 2088:158.984 - 0.015ms returns 0x01000000
T38B8 2088:164.365   JLINK_ReadMemEx(0xE0001004, 0x0004 Bytes, ..., Flags = 0x02000000)
T38B8 2088:164.392   Data:  00 00 00 00
T38B8 2088:164.407    - DWT_CYCCNT
T38B8 2088:164.421 - 0.061ms returns 0x04
T38B8 2088:286.643 JLINK_SetResetType(JLINKARM_CM3_RESET_TYPE_NORMAL)
T38B8 2088:286.672 - 0.034ms returns JLINKARM_CM3_RESET_TYPE_NORMAL
T38B8 2088:286.685 JLINK_Reset()
T38B8 2088:286.708    -- CPU_WriteMem(4 bytes @ 0xE000EDF0)
T38B8 2088:287.516    -- CPU_WriteMem(4 bytes @ 0xE000EDFC)
T38B8 2088:288.523   Reset: Halt core after reset via DEMCR.VC_CORERESET.
T38B8 2088:289.512   Reset: Reset device via AIRCR.SYSRESETREQ.
T38B8 2088:289.533    -- CPU_WriteMem(4 bytes @ 0xE000ED0C)
T38B8 2088:343.511    -- CPU_ReadMem(4 bytes @ 0xE000EDF0)
T38B8 2088:343.928    -- CPU_ReadMem(4 bytes @ 0xE000EDF0)
T38B8 2088:344.515    -- CPU_WriteMem(4 bytes @ 0xE000EDF0)
T38B8 2088:344.926    -- CPU_WriteMem(4 bytes @ 0xE000EDFC)
T38B8 2088:350.524    -- CPU_ReadMem(4 bytes @ 0xE000EDF0)
T38B8 2088:354.631    -- CPU_WriteMem(4 bytes @ 0xE0002000)
T38B8 2088:355.509    -- CPU_ReadMem(4 bytes @ 0xE000EDFC)
T38B8 2088:355.931    -- CPU_ReadMem(4 bytes @ 0xE0001000)
T38B8 2088:356.513 - 69.835ms
T38B8 2088:356.597 JLINK_ReadReg(R15 (PC))
T38B8 2088:356.612 - 0.019ms returns 0x00000A80
T38B8 2088:356.624 JLINK_ReadReg(XPSR)
T38B8 2088:356.635 - 0.015ms returns 0x01000000
T38B8 2088:356.748   JLINK_ReadMemEx(0x00000A80, 0x003C Bytes, ..., Flags = 0x02000000)
T38B8 2088:356.771    -- CPU_ReadMem(64 bytes @ 0x00000A80)
T38B8 2088:357.997    -- Updating C cache (64 bytes @ 0x00000A80)
T38B8 2088:358.018    -- Read from C cache (60 bytes @ 0x00000A80)
T38B8 2088:358.035   Data:  06 4B 18 47 06 4A 10 60 01 68 81 F3 08 88 40 68 ...
T38B8 2088:358.049 - 1.307ms returns 0x3C
T38B8 2088:358.065   JLINK_ReadMemEx(0x00000A80, 0x0002 Bytes, ..., Flags = 0x02000000)
T38B8 2088:358.081    -- Read from C cache (2 bytes @ 0x00000A80)
T38B8 2088:358.095   Data:  06 4B
T38B8 2088:358.109 - 0.050ms returns 0x02
T38B8 2088:358.122   JLINK_ReadMemEx(0x00000A82, 0x0002 Bytes, ..., Flags = 0x02000000)
T38B8 2088:358.137    -- Read from C cache (2 bytes @ 0x00000A82)
T38B8 2088:358.152   Data:  18 47
T38B8 2088:358.166 - 0.049ms returns 0x02
T38B8 2088:358.199   JLINK_ReadMemEx(0x00000A82, 0x0002 Bytes, ..., Flags = 0x02000000)
T38B8 2088:358.215    -- Read from C cache (2 bytes @ 0x00000A82)
T38B8 2088:358.229   Data:  18 47
T38B8 2088:358.243 - 0.049ms returns 0x02
T38B8 2088:358.256   JLINK_ReadMemEx(0x00000A84, 0x003C Bytes, ..., Flags = 0x02000000)
T38B8 2088:358.271    -- Read from C cache (60 bytes @ 0x00000A84)
T38B8 2088:358.286   Data:  06 4A 10 60 01 68 81 F3 08 88 40 68 00 47 00 00 ...
T38B8 2088:358.302 - 0.051ms returns 0x3C
T38B8 2088:358.314   JLINK_ReadMemEx(0x00000A84, 0x0002 Bytes, ..., Flags = 0x02000000)
T38B8 2088:358.329    -- Read from C cache (2 bytes @ 0x00000A84)
T38B8 2088:358.343   Data:  06 4A
T38B8 2088:358.357 - 0.048ms returns 0x02
T38B8 2088:358.379   JLINK_ReadMemEx(0x00000A84, 0x003C Bytes, ..., Flags = 0x02000000)
T38B8 2088:358.394    -- Read from C cache (60 bytes @ 0x00000A84)
T38B8 2088:358.409   Data:  06 4A 10 60 01 68 81 F3 08 88 40 68 00 47 00 00 ...
T38B8 2088:358.423 - 0.050ms returns 0x3C
T38B8 2088:358.435   JLINK_ReadMemEx(0x00000A84, 0x0002 Bytes, ..., Flags = 0x02000000)
T38B8 2088:358.450    -- Read from C cache (2 bytes @ 0x00000A84)
T38B8 2088:358.465   Data:  06 4A
T38B8 2088:358.479 - 0.048ms returns 0x02
T38B8 2088:358.491   JLINK_ReadMemEx(0x00000A86, 0x0002 Bytes, ..., Flags = 0x02000000)
T38B8 2088:358.506    -- Read from C cache (2 bytes @ 0x00000A86)
T38B8 2088:358.520   Data:  10 60
T38B8 2088:358.534 - 0.048ms returns 0x02
T38B8 2088:358.555   JLINK_ReadMemEx(0x00000A86, 0x0002 Bytes, ..., Flags = 0x02000000)
T38B8 2088:358.571    -- Read from C cache (2 bytes @ 0x00000A86)
T38B8 2088:358.585   Data:  10 60
T38B8 2088:358.599 - 0.049ms returns 0x02
T38B8 2088:358.611   JLINK_ReadMemEx(0x00000A88, 0x003C Bytes, ..., Flags = 0x02000000)
T38B8 2088:358.628    -- CPU_ReadMem(64 bytes @ 0x00000AC0)
T38B8 2088:359.599    -- Updating C cache (64 bytes @ 0x00000AC0)
T38B8 2088:359.618    -- Read from C cache (60 bytes @ 0x00000A88)
T38B8 2088:359.633   Data:  01 68 81 F3 08 88 40 68 00 47 00 00 00 0B 00 00 ...
T38B8 2088:359.647 - 1.041ms returns 0x3C
T38B8 2088:359.661   JLINK_ReadMemEx(0x00000A88, 0x0002 Bytes, ..., Flags = 0x02000000)
T38B8 2088:359.676    -- Read from C cache (2 bytes @ 0x00000A88)
T38B8 2088:359.691   Data:  01 68
T38B8 2088:359.705 - 0.049ms returns 0x02
T38B8 2088:359.730   JLINK_ReadMemEx(0x00000A88, 0x003C Bytes, ..., Flags = 0x02000000)
T38B8 2088:359.746    -- Read from C cache (60 bytes @ 0x00000A88)
T38B8 2088:359.761   Data:  01 68 81 F3 08 88 40 68 00 47 00 00 00 0B 00 00 ...
T38B8 2088:359.775 - 0.050ms returns 0x3C
T38B8 2088:359.788   JLINK_ReadMemEx(0x00000A88, 0x0002 Bytes, ..., Flags = 0x02000000)
T38B8 2088:359.802    -- Read from C cache (2 bytes @ 0x00000A88)
T38B8 2088:359.817   Data:  01 68
T38B8 2088:359.831 - 0.048ms returns 0x02
T38B8 2088:359.902   JLINK_ReadMemEx(0x00000A8A, 0x0002 Bytes, ..., Flags = 0x02000000)
T38B8 2088:359.921    -- Read from C cache (2 bytes @ 0x00000A8A)
T38B8 2088:359.935   Data:  81 F3
T38B8 2088:359.949 - 0.053ms returns 0x02
T38B8 2088:359.973   JLINK_ReadMemEx(0x00000A8A, 0x0002 Bytes, ..., Flags = 0x02000000)
T38B8 2088:359.989    -- Read from C cache (2 bytes @ 0x00000A8A)
T38B8 2088:360.003   Data:  81 F3
T38B8 2088:360.018 - 0.050ms returns 0x02
T38B8 2088:360.030   JLINK_ReadMemEx(0x00000A8C, 0x003C Bytes, ..., Flags = 0x02000000)
T38B8 2088:360.045    -- Read from C cache (60 bytes @ 0x00000A8C)
T38B8 2088:360.060   Data:  08 88 40 68 00 47 00 00 00 0B 00 00 00 0B 00 00 ...
T38B8 2088:360.074 - 0.049ms returns 0x3C
T38B8 2088:360.086   JLINK_ReadMemEx(0x00000A8C, 0x0002 Bytes, ..., Flags = 0x02000000)
T38B8 2088:360.101    -- Read from C cache (2 bytes @ 0x00000A8C)
T38B8 2088:360.116   Data:  08 88
T38B8 2088:360.130 - 0.048ms returns 0x02
T38B8 2088:360.151   JLINK_ReadMemEx(0x00000A8E, 0x0002 Bytes, ..., Flags = 0x02000000)
T38B8 2088:360.166    -- Read from C cache (2 bytes @ 0x00000A8E)
T38B8 2088:360.180   Data:  40 68
T38B8 2088:360.194 - 0.049ms returns 0x02
T38B8 2088:360.207   JLINK_ReadMemEx(0x00000A90, 0x003C Bytes, ..., Flags = 0x02000000)
T38B8 2088:360.222    -- Read from C cache (60 bytes @ 0x00000A90)
T38B8 2088:360.237   Data:  00 47 00 00 00 0B 00 00 00 0B 00 00 17 04 00 00 ...
T38B8 2088:360.251 - 0.050ms returns 0x3C
T38B8 2088:360.263   JLINK_ReadMemEx(0x00000A90, 0x0002 Bytes, ..., Flags = 0x02000000)
T38B8 2088:360.278    -- Read from C cache (2 bytes @ 0x00000A90)
T38B8 2088:360.292   Data:  00 47
T38B8 2088:360.306 - 0.048ms returns 0x02
T38B8 2088:421.570   JLINK_ReadMemEx(0x40006000, 0x001C Bytes, ..., Flags = 0x02000004)
T38B8 2088:421.605    -- CPU_ReadMem(28 bytes @ 0x40006000)
T38B8 2088:422.525   Data:  00 00 00 00 00 00 00 00 00 00 00 00 00 00 00 00 ...
T38B8 2088:422.535 - 0.969ms returns 0x1C
T38B8 2088:422.545   JLINK_ReadMemEx(0x4000601C, 0x0004 Bytes, ..., Flags = 0x02000004)
T38B8 2088:422.555    -- CPU_ReadMem(4 bytes @ 0x4000601C)
T38B8 2088:422.928   Data:  00 00 00 00
T38B8 2088:422.938 - 0.396ms returns 0x04
T38B8 2088:422.947   JLINK_ReadMemEx(0x40006030, 0x001C Bytes, ..., Flags = 0x02000004)
T38B8 2088:422.957    -- CPU_ReadMem(28 bytes @ 0x40006030)
T38B8 2088:423.522   Data:  00 00 00 00 00 00 00 00 00 00 00 00 00 00 00 00 ...
T38B8 2088:423.532 - 0.588ms returns 0x1C
T38B8 2088:423.540   JLINK_ReadMemEx(0x4000604C, 0x0004 Bytes, ..., Flags = 0x02000004)
T38B8 2088:423.551    -- CPU_ReadMem(4 bytes @ 0x4000604C)
T38B8 2088:423.928   Data:  00 00 00 00
T38B8 2088:423.939 - 0.402ms returns 0x04
T38B8 2088:423.949   JLINK_ReadMemEx(0x40006060, 0x001C Bytes, ..., Flags = 0x02000004)
T38B8 2088:423.960    -- CPU_ReadMem(28 bytes @ 0x40006060)
T38B8 2088:424.523   Data:  00 00 00 00 00 00 00 00 00 00 00 00 00 00 00 00 ...
T38B8 2088:424.534 - 0.588ms returns 0x1C
T38B8 2088:424.543   JLINK_ReadMemEx(0x4000607C, 0x0004 Bytes, ..., Flags = 0x02000004)
T38B8 2088:424.553    -- CPU_ReadMem(4 bytes @ 0x4000607C)
T38B8 2088:424.927   Data:  00 00 00 00
T38B8 2088:424.937 - 0.397ms returns 0x04
T38B8 2088:424.945   JLINK_ReadMemEx(0x40006100, 0x001C Bytes, ..., Flags = 0x02000004)
T38B8 2088:424.955    -- CPU_ReadMem(28 bytes @ 0x40006100)
T38B8 2088:425.523   Data:  00 00 00 00 00 00 00 00 00 00 00 00 00 00 00 00 ...
T38B8 2088:425.533 - 0.590ms returns 0x1C
T38B8 2088:425.541   JLINK_ReadMemEx(0x4000611C, 0x0004 Bytes, ..., Flags = 0x02000004)
T38B8 2088:425.551    -- CPU_ReadMem(4 bytes @ 0x4000611C)
T38B8 2088:425.928   Data:  00 00 00 00
T38B8 2088:425.937 - 0.399ms returns 0x04
T38B8 2088:425.945   JLINK_ReadMemEx(0x4000617C, 0x0004 Bytes, ..., Flags = 0x02000004)
T38B8 2088:425.956    -- CPU_ReadMem(4 bytes @ 0x4000617C)
T38B8 2088:426.506   Data:  00 00 00 00
T38B8 2088:426.516 - 0.573ms returns 0x04
T38B8 2088:426.524   JLINK_ReadMemEx(0x40006304, 0x0004 Bytes, ..., Flags = 0x02000004)
T38B8 2088:426.540    -- CPU_ReadMem(4 bytes @ 0x40006304)
T38B8 2088:426.926   Data:  00 00 00 00
T38B8 2088:426.936 - 0.414ms returns 0x04
T38B8 2088:426.944   JLINK_ReadMemEx(0x40006308, 0x0004 Bytes, ..., Flags = 0x02000004)
T38B8 2088:426.954    -- CPU_ReadMem(4 bytes @ 0x40006308)
T38B8 2088:427.506   Data:  00 00 00 00
T38B8 2088:427.515 - 0.574ms returns 0x04
T38B8 2088:427.524   JLINK_ReadMemEx(0x40006510, 0x001C Bytes, ..., Flags = 0x02000004)
T38B8 2088:427.534    -- CPU_ReadMem(28 bytes @ 0x40006510)
T38B8 2088:427.942   Data:  00 00 00 00 00 00 00 00 00 00 00 00 00 00 00 00 ...
T38B8 2088:427.952 - 0.431ms returns 0x1C
T38B8 2088:427.960   JLINK_ReadMemEx(0x4000652C, 0x0004 Bytes, ..., Flags = 0x02000004)
T38B8 2088:427.970    -- CPU_ReadMem(4 bytes @ 0x4000652C)
T38B8 2088:428.507   Data:  00 00 00 00
T38B8 2088:428.517 - 0.559ms returns 0x04
T38B8 2088:454.914   JLINK_ReadMemEx(0x50000504, 0x0020 Bytes, ..., Flags = 0x02000004)
T38B8 2088:454.948    -- CPU_ReadMem(32 bytes @ 0x50000504)
T38B8 2088:455.954   Data:  00 00 00 00 00 00 00 00 00 00 00 00 00 00 20 00 ...
T38B8 2088:455.965 - 1.055ms returns 0x20
T38B8 2088:455.974   JLINK_ReadMemEx(0x50000524, 0x0004 Bytes, ..., Flags = 0x02000004)
T38B8 2088:455.985    -- CPU_ReadMem(4 bytes @ 0x50000524)
T38B8 2088:456.929   Data:  00 00 00 00
T38B8 2088:456.939 - 0.967ms returns 0x04
T38B8 2088:456.947   JLINK_ReadMemEx(0x50000700, 0x007C Bytes, ..., Flags = 0x02000004)
T38B8 2088:456.958    -- CPU_ReadMem(124 bytes @ 0x50000700)
T38B8 2088:458.050   Data:  02 00 00 00 02 00 00 00 02 00 00 00 02 00 00 00 ...
T38B8 2088:458.060 - 1.116ms returns 0x7C
T38B8 2088:458.072   JLINK_ReadMemEx(0x5000077C, 0x0004 Bytes, ..., Flags = 0x02000004)
T38B8 2088:458.082    -- CPU_ReadMem(4 bytes @ 0x5000077C)
T38B8 2088:458.351   Data:  02 00 00 00
T38B8 2088:458.360 - 0.292ms returns 0x04
T38B8 2088:484.141   JLINK_ReadMemEx(0x40023010, 0x0004 Bytes, ..., Flags = 0x02000004)
T38B8 2088:484.176    -- CPU_ReadMem(4 bytes @ 0x40023010)
T38B8 2088:484.512   Data:  00 00 00 00
T38B8 2088:484.523 - 0.386ms returns 0x04
T38B8 2088:484.532   JLINK_ReadMemEx(0x40023014, 0x0004 Bytes, ..., Flags = 0x02000004)
T38B8 2088:484.543    -- CPU_ReadMem(4 bytes @ 0x40023014)
T38B8 2088:484.929   Data:  00 00 00 00
T38B8 2088:484.939 - 0.409ms returns 0x04
T38B8 2088:484.947   JLINK_ReadMemEx(0x4002301C, 0x0004 Bytes, ..., Flags = 0x02000004)
T38B8 2088:484.958    -- CPU_ReadMem(4 bytes @ 0x4002301C)
T38B8 2088:485.510   Data:  00 00 00 00
T38B8 2088:485.520 - 0.575ms returns 0x04
T38B8 2088:485.529   JLINK_ReadMemEx(0x40023020, 0x0004 Bytes, ..., Flags = 0x02000004)
T38B8 2088:485.539    -- CPU_ReadMem(4 bytes @ 0x40023020)
T38B8 2088:485.931   Data:  00 00 00 00
T38B8 2088:485.941 - 0.415ms returns 0x04
T38B8 2088:485.949   JLINK_ReadMemEx(0x40023104, 0x0004 Bytes, ..., Flags = 0x02000004)
T38B8 2088:485.960    -- CPU_ReadMem(4 bytes @ 0x40023104)
T38B8 2088:486.510   Data:  00 00 00 00
T38B8 2088:486.520 - 0.573ms returns 0x04
T38B8 2088:486.528   JLINK_ReadMemEx(0x40023110, 0x0004 Bytes, ..., Flags = 0x02000004)
T38B8 2088:486.538    -- CPU_ReadMem(4 bytes @ 0x40023110)
T38B8 2088:486.930   Data:  00 00 00 00
T38B8 2088:486.940 - 0.415ms returns 0x04
T38B8 2088:486.949   JLINK_ReadMemEx(0x40023118, 0x0004 Bytes, ..., Flags = 0x02000004)
T38B8 2088:486.959    -- CPU_ReadMem(4 bytes @ 0x40023118)
T38B8 2088:487.508   Data:  00 00 00 00
T38B8 2088:487.518 - 0.572ms returns 0x04
T38B8 2088:487.526   JLINK_ReadMemEx(0x40023120, 0x0004 Bytes, ..., Flags = 0x02000004)
T38B8 2088:487.536    -- CPU_ReadMem(4 bytes @ 0x40023120)
T38B8 2088:487.931   Data:  00 00 00 00
T38B8 2088:487.940 - 0.417ms returns 0x04
T38B8 2088:487.949   JLINK_ReadMemEx(0x4002314C, 0x0004 Bytes, ..., Flags = 0x02000004)
T38B8 2088:487.959    -- CPU_ReadMem(4 bytes @ 0x4002314C)
T38B8 2088:488.510   Data:  00 00 00 00
T38B8 2088:488.520 - 0.574ms returns 0x04
T38B8 2088:488.529   JLINK_ReadMemEx(0x40023200, 0x0004 Bytes, ..., Flags = 0x02000004)
T38B8 2088:488.539    -- CPU_ReadMem(4 bytes @ 0x40023200)
T38B8 2088:488.929   Data:  00 00 00 00
T38B8 2088:488.939 - 0.413ms returns 0x04
T38B8 2088:488.948   JLINK_ReadMemEx(0x40023304, 0x0004 Bytes, ..., Flags = 0x02000004)
T38B8 2088:488.958    -- CPU_ReadMem(4 bytes @ 0x40023304)
T38B8 2088:489.512   Data:  00 00 00 00
T38B8 2088:489.521 - 0.576ms returns 0x04
T38B8 2088:489.530   JLINK_ReadMemEx(0x40023308, 0x0004 Bytes, ..., Flags = 0x02000004)
T38B8 2088:489.540    -- CPU_ReadMem(4 bytes @ 0x40023308)
T38B8 2088:489.928   Data:  00 00 00 00
T38B8 2088:489.938 - 0.411ms returns 0x04
T38B8 2088:489.946   JLINK_ReadMemEx(0x40023500, 0x0004 Bytes, ..., Flags = 0x02000004)
T38B8 2088:489.957    -- CPU_ReadMem(4 bytes @ 0x40023500)
T38B8 2088:490.509   Data:  00 00 00 00
T38B8 2088:490.519 - 0.575ms returns 0x04
T38B8 2088:490.527   JLINK_ReadMemEx(0x40023508, 0x0008 Bytes, ..., Flags = 0x02000004)
T38B8 2088:490.538    -- CPU_ReadMem(8 bytes @ 0x40023508)
T38B8 2088:490.932   Data:  FF FF FF FF FF FF FF FF
T38B8 2088:490.942 - 0.417ms returns 0x08
T38B8 2088:490.950   JLINK_ReadMemEx(0x40023510, 0x0004 Bytes, ..., Flags = 0x02000004)
T38B8 2088:490.960    -- CPU_ReadMem(4 bytes @ 0x40023510)
T38B8 2088:491.511   Data:  FF FF FF FF
T38B8 2088:491.520 - 0.573ms returns 0x04
T38B8 2088:491.529   JLINK_ReadMemEx(0x40023524, 0x0004 Bytes, ..., Flags = 0x02000004)
T38B8 2088:491.539    -- CPU_ReadMem(4 bytes @ 0x40023524)
T38B8 2088:491.929   Data:  00 00 00 04
T38B8 2088:491.938 - 0.412ms returns 0x04
T38B8 2088:491.947   JLINK_ReadMemEx(0x40023534, 0x0020 Bytes, ..., Flags = 0x02000004)
T38B8 2088:491.957    -- CPU_ReadMem(32 bytes @ 0x40023534)
T38B8 2088:492.529   Data:  00 00 00 00 00 00 00 00 00 00 00 00 00 00 00 00 ...
T38B8 2088:492.539 - 0.595ms returns 0x20
T38B8 2088:492.547   JLINK_ReadMemEx(0x40023554, 0x0004 Bytes, ..., Flags = 0x02000004)
T38B8 2088:492.557    -- CPU_ReadMem(4 bytes @ 0x40023554)
T38B8 2088:492.929   Data:  00 00 00 00
T38B8 2088:492.938 - 0.394ms returns 0x04
T38B8 2088:492.947   JLINK_ReadMemEx(0x400235C0, 0x0004 Bytes, ..., Flags = 0x02000004)
T38B8 2088:492.957    -- CPU_ReadMem(4 bytes @ 0x400235C0)
T38B8 2088:493.510   Data:  00 00 00 00
T38B8 2088:493.519 - 0.576ms returns 0x04
T38B8 2089:601.623   JLINK_ReadMemEx(0x00000A80, 0x003C Bytes, ..., Flags = 0x02000000)
T38B8 2089:601.651    -- Read from C cache (60 bytes @ 0x00000A80)
T38B8 2089:601.661   Data:  06 4B 18 47 06 4A 10 60 01 68 81 F3 08 88 40 68 ...
T38B8 2089:601.670 - 0.051ms returns 0x3C
T38B8 2089:601.678   JLINK_ReadMemEx(0x00000A80, 0x0002 Bytes, ..., Flags = 0x02000000)
T38B8 2089:601.687    -- Read from C cache (2 bytes @ 0x00000A80)
T38B8 2089:601.696   Data:  06 4B
T38B8 2089:601.705 - 0.030ms returns 0x02
T38B8 2089:601.713   JLINK_ReadMemEx(0x00000A82, 0x0002 Bytes, ..., Flags = 0x02000000)
T38B8 2089:601.722    -- Read from C cache (2 bytes @ 0x00000A82)
T38B8 2089:601.730   Data:  18 47
T38B8 2089:601.739 - 0.029ms returns 0x02
T38B8 2089:601.776   JLINK_ReadMemEx(0x00000A82, 0x0002 Bytes, ..., Flags = 0x02000000)
T38B8 2089:601.785    -- Read from C cache (2 bytes @ 0x00000A82)
T38B8 2089:601.794   Data:  18 47
T38B8 2089:601.803 - 0.029ms returns 0x02
T38B8 2089:601.810   JLINK_ReadMemEx(0x00000A84, 0x003C Bytes, ..., Flags = 0x02000000)
T38B8 2089:601.819    -- Read from C cache (60 bytes @ 0x00000A84)
T38B8 2089:601.828   Data:  06 4A 10 60 01 68 81 F3 08 88 40 68 00 47 00 00 ...
T38B8 2089:601.836 - 0.029ms returns 0x3C
T38B8 2089:601.843   JLINK_ReadMemEx(0x00000A84, 0x0002 Bytes, ..., Flags = 0x02000000)
T38B8 2089:601.852    -- Read from C cache (2 bytes @ 0x00000A84)
T38B8 2089:601.860   Data:  06 4A
T38B8 2089:601.869 - 0.029ms returns 0x02
T38B8 2089:601.881   JLINK_ReadMemEx(0x00000A84, 0x003C Bytes, ..., Flags = 0x02000000)
T38B8 2089:601.890    -- Read from C cache (60 bytes @ 0x00000A84)
T38B8 2089:601.899   Data:  06 4A 10 60 01 68 81 F3 08 88 40 68 00 47 00 00 ...
T38B8 2089:601.907 - 0.029ms returns 0x3C
T38B8 2089:601.914   JLINK_ReadMemEx(0x00000A84, 0x0002 Bytes, ..., Flags = 0x02000000)
T38B8 2089:601.930    -- Read from C cache (2 bytes @ 0x00000A84)
T38B8 2089:601.938   Data:  06 4A
T38B8 2089:601.947 - 0.036ms returns 0x02
T38B8 2089:601.954   JLINK_ReadMemEx(0x00000A86, 0x0002 Bytes, ..., Flags = 0x02000000)
T38B8 2089:601.963    -- Read from C cache (2 bytes @ 0x00000A86)
T38B8 2089:601.971   Data:  10 60
T38B8 2089:601.980 - 0.028ms returns 0x02
T38B8 2089:601.992   JLINK_ReadMemEx(0x00000A86, 0x0002 Bytes, ..., Flags = 0x02000000)
T38B8 2089:602.001    -- Read from C cache (2 bytes @ 0x00000A86)
T38B8 2089:602.009   Data:  10 60
T38B8 2089:602.018 - 0.029ms returns 0x02
T38B8 2089:602.025   JLINK_ReadMemEx(0x00000A88, 0x003C Bytes, ..., Flags = 0x02000000)
T38B8 2089:602.034    -- Read from C cache (60 bytes @ 0x00000A88)
T38B8 2089:602.042   Data:  01 68 81 F3 08 88 40 68 00 47 00 00 00 0B 00 00 ...
T38B8 2089:602.051 - 0.029ms returns 0x3C
T38B8 2089:602.058   JLINK_ReadMemEx(0x00000A88, 0x0002 Bytes, ..., Flags = 0x02000000)
T38B8 2089:602.066    -- Read from C cache (2 bytes @ 0x00000A88)
T38B8 2089:602.075   Data:  01 68
T38B8 2089:602.083 - 0.028ms returns 0x02
T38B8 2089:602.095   JLINK_ReadMemEx(0x00000A88, 0x003C Bytes, ..., Flags = 0x02000000)
T38B8 2089:602.104    -- Read from C cache (60 bytes @ 0x00000A88)
T38B8 2089:602.113   Data:  01 68 81 F3 08 88 40 68 00 47 00 00 00 0B 00 00 ...
T38B8 2089:602.121 - 0.029ms returns 0x3C
T38B8 2089:602.128   JLINK_ReadMemEx(0x00000A88, 0x0002 Bytes, ..., Flags = 0x02000000)
T38B8 2089:602.138    -- Read from C cache (2 bytes @ 0x00000A88)
T38B8 2089:602.147   Data:  01 68
T38B8 2089:602.155 - 0.030ms returns 0x02
T38B8 2089:602.162   JLINK_ReadMemEx(0x00000A8A, 0x0002 Bytes, ..., Flags = 0x02000000)
T38B8 2089:602.171    -- Read from C cache (2 bytes @ 0x00000A8A)
T38B8 2089:602.180   Data:  81 F3
T38B8 2089:602.188 - 0.028ms returns 0x02
T38B8 2089:602.200   JLINK_ReadMemEx(0x00000A8A, 0x0002 Bytes, ..., Flags = 0x02000000)
T38B8 2089:602.209    -- Read from C cache (2 bytes @ 0x00000A8A)
T38B8 2089:602.217   Data:  81 F3
T38B8 2089:602.226 - 0.029ms returns 0x02
T38B8 2089:602.233   JLINK_ReadMemEx(0x00000A8C, 0x003C Bytes, ..., Flags = 0x02000000)
T38B8 2089:602.242    -- Read from C cache (60 bytes @ 0x00000A8C)
T38B8 2089:602.251   Data:  08 88 40 68 00 47 00 00 00 0B 00 00 00 0B 00 00 ...
T38B8 2089:602.259 - 0.029ms returns 0x3C
T38B8 2089:602.266   JLINK_ReadMemEx(0x00000A8C, 0x0002 Bytes, ..., Flags = 0x02000000)
T38B8 2089:602.275    -- Read from C cache (2 bytes @ 0x00000A8C)
T38B8 2089:602.283   Data:  08 88
T38B8 2089:602.292 - 0.028ms returns 0x02
T38B8 2089:602.303   JLINK_ReadMemEx(0x00000A8E, 0x0002 Bytes, ..., Flags = 0x02000000)
T38B8 2089:602.312    -- Read from C cache (2 bytes @ 0x00000A8E)
T38B8 2089:602.321   Data:  40 68
T38B8 2089:602.329 - 0.029ms returns 0x02
T38B8 2089:602.336   JLINK_ReadMemEx(0x00000A90, 0x003C Bytes, ..., Flags = 0x02000000)
T38B8 2089:602.345    -- Read from C cache (60 bytes @ 0x00000A90)
T38B8 2089:602.354   Data:  00 47 00 00 00 0B 00 00 00 0B 00 00 17 04 00 00 ...
T38B8 2089:602.362 - 0.029ms returns 0x3C
T38B8 2089:602.369   JLINK_ReadMemEx(0x00000A90, 0x0002 Bytes, ..., Flags = 0x02000000)
T38B8 2089:602.378    -- Read from C cache (2 bytes @ 0x00000A90)
T38B8 2089:602.386   Data:  00 47
T38B8 2089:602.395 - 0.028ms returns 0x02
T38B8 2089:828.515 JLINK_ReadReg(R0)
T38B8 2089:828.991 - 0.482ms returns 0x00000000
T38B8 2089:829.002 JLINK_ReadReg(R1)
T38B8 2089:829.008 - 0.009ms returns 0x00000000
T38B8 2089:829.015 JLINK_ReadReg(R2)
T38B8 2089:829.022 - 0.009ms returns 0x00000000
T38B8 2089:829.029 JLINK_ReadReg(R3)
T38B8 2089:829.035 - 0.009ms returns 0x00000000
T38B8 2089:829.042 JLINK_ReadReg(R4)
T38B8 2089:829.048 - 0.009ms returns 0x00000000
T38B8 2089:829.055 JLINK_ReadReg(R5)
T38B8 2089:829.061 - 0.009ms returns 0x00000000
T38B8 2089:829.068 JLINK_ReadReg(R6)
T38B8 2089:829.074 - 0.008ms returns 0x00000000
T38B8 2089:829.081 JLINK_ReadReg(R7)
T38B8 2089:829.087 - 0.051ms returns 0x00000000
T38B8 2089:829.138 JLINK_ReadReg(R8)
T38B8 2089:829.144 - 0.009ms returns 0x00000000
T38B8 2089:829.151 JLINK_ReadReg(R9)
T38B8 2089:829.157 - 0.009ms returns 0x00000000
T38B8 2089:829.164 JLINK_ReadReg(R10)
T38B8 2089:829.170 - 0.009ms returns 0x00000000
T38B8 2089:829.177 JLINK_ReadReg(R11)
T38B8 2089:829.183 - 0.009ms returns 0x00000000
T38B8 2089:829.190 JLINK_ReadReg(R12)
T38B8 2089:829.196 - 0.008ms returns 0x00000000
T38B8 2089:829.203 JLINK_ReadReg(R13 (SP))
T38B8 2089:829.209 - 0.009ms returns 0x20000400
T38B8 2089:829.216 JLINK_ReadReg(R14)
T38B8 2089:829.222 - 0.009ms returns 0xFFFFFFFF
T38B8 2089:829.229 JLINK_ReadReg(R15 (PC))
T38B8 2089:829.235 - 0.009ms returns 0x00000A80
T38B8 2089:829.242 JLINK_ReadReg(XPSR)
T38B8 2089:829.248 - 0.009ms returns 0x01000000
T38B8 2089:829.255 JLINK_ReadReg(MSP)
T38B8 2089:829.261 - 0.008ms returns 0x20000400
T38B8 2089:829.268 JLINK_ReadReg(PSP)
T38B8 2089:829.274 - 0.008ms returns 0x00000000
T38B8 2089:829.280 JLINK_ReadReg(CFBP)
T38B8 2089:829.286 - 0.009ms returns 0x00000000
T38B8 2089:829.293 JLINK_ReadReg(FPSCR)
T38B8 2089:833.002 - 3.714ms returns 0x00000000
T38B8 2089:833.013 JLINK_ReadReg(FPS0)
T38B8 2089:833.020 - 0.009ms returns 0x00000000
T38B8 2089:833.027 JLINK_ReadReg(FPS1)
T38B8 2089:833.033 - 0.008ms returns 0x00000000
T38B8 2089:833.040 JLINK_ReadReg(FPS2)
T38B8 2089:833.046 - 0.009ms returns 0x00000000
T38B8 2089:833.053 JLINK_ReadReg(FPS3)
T38B8 2089:833.058 - 0.008ms returns 0x00000000
T38B8 2089:833.065 JLINK_ReadReg(FPS4)
T38B8 2089:833.071 - 0.008ms returns 0x00000000
T38B8 2089:833.078 JLINK_ReadReg(FPS5)
T38B8 2089:833.084 - 0.008ms returns 0x00000000
T38B8 2089:833.091 JLINK_ReadReg(FPS6)
T38B8 2089:833.096 - 0.008ms returns 0x00000000
T38B8 2089:833.103 JLINK_ReadReg(FPS7)
T38B8 2089:833.109 - 0.008ms returns 0x00000000
T38B8 2089:833.116 JLINK_ReadReg(FPS8)
T38B8 2089:833.122 - 0.008ms returns 0x00000000
T38B8 2089:833.129 JLINK_ReadReg(FPS9)
T38B8 2089:833.134 - 0.008ms returns 0x00000000
T38B8 2089:833.141 JLINK_ReadReg(FPS10)
T38B8 2089:833.147 - 0.009ms returns 0x00000000
T38B8 2089:833.154 JLINK_ReadReg(FPS11)
T38B8 2089:833.160 - 0.008ms returns 0x00000000
T38B8 2089:833.167 JLINK_ReadReg(FPS12)
T38B8 2089:833.172 - 0.008ms returns 0x00000000
T38B8 2089:833.179 JLINK_ReadReg(FPS13)
T38B8 2089:833.185 - 0.008ms returns 0x00000000
T38B8 2089:833.192 JLINK_ReadReg(FPS14)
T38B8 2089:833.198 - 0.008ms returns 0x00000000
T38B8 2089:833.205 JLINK_ReadReg(FPS15)
T38B8 2089:833.210 - 0.008ms returns 0x00000000
T38B8 2089:833.217 JLINK_ReadReg(FPS16)
T38B8 2089:833.223 - 0.009ms returns 0x00000000
T38B8 2089:833.231 JLINK_ReadReg(FPS17)
T38B8 2089:833.238 - 0.010ms returns 0x00000000
T38B8 2089:833.246 JLINK_ReadReg(FPS18)
T38B8 2089:833.253 - 0.010ms returns 0x00000000
T38B8 2089:833.261 JLINK_ReadReg(FPS19)
T38B8 2089:833.267 - 0.009ms returns 0x00000000
T38B8 2089:833.274 JLINK_ReadReg(FPS20)
T38B8 2089:833.280 - 0.008ms returns 0x00000000
T38B8 2089:833.287 JLINK_ReadReg(FPS21)
T38B8 2089:833.293 - 0.008ms returns 0x00000000
T38B8 2089:833.299 JLINK_ReadReg(FPS22)
T38B8 2089:833.305 - 0.008ms returns 0x00000000
T38B8 2089:833.312 JLINK_ReadReg(FPS23)
T38B8 2089:833.318 - 0.008ms returns 0x00000000
T38B8 2089:833.324 JLINK_ReadReg(FPS24)
T38B8 2089:833.330 - 0.008ms returns 0x00000000
T38B8 2089:833.337 JLINK_ReadReg(FPS25)
T38B8 2089:833.343 - 0.008ms returns 0x00000000
T38B8 2089:833.350 JLINK_ReadReg(FPS26)
T38B8 2089:833.356 - 0.008ms returns 0x00000000
T38B8 2089:833.362 JLINK_ReadReg(FPS27)
T38B8 2089:833.369 - 0.009ms returns 0x00000000
T38B8 2089:833.376 JLINK_ReadReg(FPS28)
T38B8 2089:833.382 - 0.008ms returns 0x00000000
T38B8 2089:833.389 JLINK_ReadReg(FPS29)
T38B8 2089:833.394 - 0.008ms returns 0x00000000
T38B8 2089:833.401 JLINK_ReadReg(FPS30)
T38B8 2089:833.407 - 0.008ms returns 0x00000000
T38B8 2089:833.414 JLINK_ReadReg(FPS31)
T38B8 2089:833.420 - 0.008ms returns 0x00000000
T38B8 2089:854.603   JLINK_ReadMemEx(0x200059E0, 0x0004 Bytes, ..., Flags = 0x02000000)
T38B8 2089:854.640    -- CPU_ReadMem(64 bytes @ 0x200059C0)
T38B8 2089:855.644    -- Updating C cache (64 bytes @ 0x200059C0)
T38B8 2089:855.655    -- Read from C cache (4 bytes @ 0x200059E0)
T38B8 2089:855.664   Data:  01 00 00 00
T38B8 2089:855.673 - 1.073ms returns 0x04
T38B8 2089:856.271   JLINK_ReadMemEx(0x200059E0, 0x0004 Bytes, ..., Flags = 0x02000000)
T38B8 2089:856.284    -- Read from C cache (4 bytes @ 0x200059E0)
T38B8 2089:856.293   Data:  01 00 00 00
T38B8 2089:856.301 - 0.034ms returns 0x04
T38B8 2089:856.321   JLINK_ReadMemEx(0x200059E0, 0x0004 Bytes, ..., Flags = 0x02000000)
T38B8 2089:856.331    -- Read from C cache (4 bytes @ 0x200059E0)
T38B8 2089:856.339   Data:  01 00 00 00
T38B8 2089:856.348 - 0.030ms returns 0x04
T0B08 2089:894.061   JLINK_ReadMemEx(0x00000A80, 0x0002 Bytes, ..., Flags = 0x02000000)
T0B08 2089:894.100    -- Read from C cache (2 bytes @ 0x00000A80)
T0B08 2089:894.116   Data:  06 4B
T0B08 2089:894.131 - 0.076ms returns 0x02
T0B08 2089:894.153   JLINK_SetBPEx(Addr = 0x0002C7F4, Type = 0xFFFFFFF2)
T0B08 2089:894.172 - 0.024ms returns 0x00000001
T0B08 2089:894.186   JLINK_SetBPEx(Addr = 0x0002CB34, Type = 0xFFFFFFF2)
T0B08 2089:894.202 - 0.021ms returns 0x00000002
T0B08 2089:894.219 JLINK_Go()
T0B08 2089:894.274    -- CPU_WriteMem(4 bytes @ 0xE0002000)
T0B08 2089:895.004    -- CPU_WriteMem(4 bytes @ 0xE0002000)
T0B08 2089:895.607    -- CPU_ReadMem(4 bytes @ 0xE0001000)
T0B08 2089:896.004    -- CPU_WriteMem(4 bytes @ 0xE0002008)
T0B08 2089:896.025    -- CPU_WriteMem(4 bytes @ 0xE000200C)
T0B08 2089:896.041    -- CPU_WriteMem(4 bytes @ 0xE0002010)
T0B08 2089:896.056    -- CPU_WriteMem(4 bytes @ 0xE0002014)
T0B08 2089:896.071    -- CPU_WriteMem(4 bytes @ 0xE0002018)
T0B08 2089:896.085    -- CPU_WriteMem(4 bytes @ 0xE000201C)
T0B08 2089:898.027    -- CPU_WriteMem(4 bytes @ 0xE0001004)
T0B08 2089:899.592 - 5.387ms
T0B08 2089:999.662 JLINK_IsHalted()
T0B08 2090:002.684 - 3.041ms returns TRUE
T0B08 2090:002.718 JLINK_Halt()
T0B08 2090:002.728 - 0.015ms returns 0x00
T0B08 2090:002.741 JLINK_IsHalted()
T0B08 2090:002.750 - 0.014ms returns TRUE
T0B08 2090:002.762 JLINK_IsHalted()
T0B08 2090:002.772 - 0.014ms returns TRUE
T0B08 2090:002.783 JLINK_IsHalted()
T0B08 2090:002.793 - 0.014ms returns TRUE
T0B08 2090:002.807 JLINK_ReadReg(R15 (PC))
T0B08 2090:002.819 - 0.017ms returns 0x0002C7F4
T0B08 2090:002.831 JLINK_ReadReg(XPSR)
T0B08 2090:002.841 - 0.015ms returns 0x61000000
T0B08 2090:002.864 JLINK_ClrBPEx(BPHandle = 0x00000001)
T0B08 2090:002.875 - 0.016ms returns 0x00
T0B08 2090:002.889 JLINK_ClrBPEx(BPHandle = 0x00000002)
T0B08 2090:002.899 - 0.015ms returns 0x00
T0B08 2090:002.915   JLINK_ReadMemU32(0xE000ED30, 0x0001 Items, ...)
T0B08 2090:002.935    -- CPU_ReadMem(4 bytes @ 0xE000ED30)
T0B08 2090:004.012   Data:  02 00 00 00
T0B08 2090:004.035 - 1.126ms returns 1
T0B08 2090:004.052   JLINK_ReadMemU32(0xE0001028, 0x0001 Items, ...)
T0B08 2090:004.075    -- CPU_ReadMem(4 bytes @ 0xE0001028)
T0B08 2090:005.009   Data:  00 00 00 00
T0B08 2090:005.028    - DWT_FUNC[0]
T0B08 2090:005.042 - 0.996ms returns 1
T0B08 2090:005.056   JLINK_ReadMemU32(0xE0001038, 0x0001 Items, ...)
T0B08 2090:005.074    -- CPU_ReadMem(4 bytes @ 0xE0001038)
T0B08 2090:005.591   Data:  00 02 00 00
T0B08 2090:005.611    - DWT_FUNC[1]
T0B08 2090:005.625 - 0.573ms returns 1
T0B08 2090:005.639   JLINK_ReadMemU32(0xE0001048, 0x0001 Items, ...)
T0B08 2090:005.657    -- CPU_ReadMem(4 bytes @ 0xE0001048)
T0B08 2090:006.005   Data:  00 00 00 00
T0B08 2090:006.023    - DWT_FUNC[2]
T0B08 2090:006.037 - 0.402ms returns 1
T0B08 2090:006.050   JLINK_ReadMemU32(0xE0001058, 0x0001 Items, ...)
T0B08 2090:006.067    -- CPU_ReadMem(4 bytes @ 0xE0001058)
T0B08 2090:006.586   Data:  00 00 00 00
T0B08 2090:006.604    - DWT_FUNC[3]
T0B08 2090:006.617 - 0.572ms returns 1
T0B08 2090:006.705 JLINK_ReadReg(R0)
T0B08 2090:006.718 - 0.017ms returns 0x0002C7F5
T0B08 2090:006.730 JLINK_ReadReg(R1)
T0B08 2090:006.740 - 0.015ms returns 0x200099C8
T0B08 2090:006.757 JLINK_ReadReg(R2)
T0B08 2090:006.771 - 0.018ms returns 0x00000000
T0B08 2090:006.782 JLINK_ReadReg(R3)
T0B08 2090:006.792 - 0.015ms returns 0x0002705F
T0B08 2090:006.804 JLINK_ReadReg(R4)
T0B08 2090:006.814 - 0.014ms returns 0x000387B8
T0B08 2090:006.825 JLINK_ReadReg(R5)
T0B08 2090:006.835 - 0.014ms returns 0x000387B8
T0B08 2090:006.846 JLINK_ReadReg(R6)
T0B08 2090:006.856 - 0.014ms returns 0x10001000
T0B08 2090:006.868 JLINK_ReadReg(R7)
T0B08 2090:006.878 - 0.014ms returns 0x00000000
T0B08 2090:006.889 JLINK_ReadReg(R8)
T0B08 2090:006.899 - 0.014ms returns 0x00000000
T0B08 2090:006.910 JLINK_ReadReg(R9)
T0B08 2090:006.920 - 0.014ms returns 0x00000000
T0B08 2090:006.931 JLINK_ReadReg(R10)
T0B08 2090:006.941 - 0.014ms returns 0x00000000
T0B08 2090:006.953 JLINK_ReadReg(R11)
T0B08 2090:006.963 - 0.014ms returns 0x00000000
T0B08 2090:006.974 JLINK_ReadReg(R12)
T0B08 2090:006.984 - 0.014ms returns 0x00000000
T0B08 2090:006.995 JLINK_ReadReg(R13 (SP))
T0B08 2090:007.005 - 0.015ms returns 0x200099C8
T0B08 2090:007.017 JLINK_ReadReg(R14)
T0B08 2090:007.027 - 0.014ms returns 0x0002659D
T0B08 2090:007.038 JLINK_ReadReg(R15 (PC))
T0B08 2090:007.048 - 0.014ms returns 0x0002C7F4
T0B08 2090:007.059 JLINK_ReadReg(XPSR)
T0B08 2090:007.069 - 0.014ms returns 0x61000000
T0B08 2090:007.081 JLINK_ReadReg(MSP)
T0B08 2090:007.090 - 0.014ms returns 0x200099C8
T0B08 2090:007.102 JLINK_ReadReg(PSP)
T0B08 2090:007.111 - 0.014ms returns 0x00000000
T0B08 2090:007.123 JLINK_ReadReg(CFBP)
T0B08 2090:007.133 - 0.014ms returns 0x00000000
T0B08 2090:007.144 JLINK_ReadReg(FPSCR)
T0B08 2090:010.598 - 3.465ms returns 0x00000000
T0B08 2090:010.620 JLINK_ReadReg(FPS0)
T0B08 2090:010.632 - 0.017ms returns 0x00000000
T0B08 2090:010.643 JLINK_ReadReg(FPS1)
T0B08 2090:010.654 - 0.015ms returns 0x00000000
T0B08 2090:010.666 JLINK_ReadReg(FPS2)
T0B08 2090:010.676 - 0.015ms returns 0x00000000
T0B08 2090:010.688 JLINK_ReadReg(FPS3)
T0B08 2090:010.698 - 0.015ms returns 0x00000000
T0B08 2090:010.709 JLINK_ReadReg(FPS4)
T0B08 2090:010.719 - 0.014ms returns 0x00000000
T0B08 2090:010.731 JLINK_ReadReg(FPS5)
T0B08 2090:010.741 - 0.015ms returns 0x00000000
T0B08 2090:010.752 JLINK_ReadReg(FPS6)
T0B08 2090:010.762 - 0.014ms returns 0x00000000
T0B08 2090:010.774 JLINK_ReadReg(FPS7)
T0B08 2090:010.784 - 0.014ms returns 0x00000000
T0B08 2090:010.795 JLINK_ReadReg(FPS8)
T0B08 2090:010.805 - 0.015ms returns 0x00000000
T0B08 2090:010.817 JLINK_ReadReg(FPS9)
T0B08 2090:010.826 - 0.014ms returns 0x00000000
T0B08 2090:010.838 JLINK_ReadReg(FPS10)
T0B08 2090:010.848 - 0.015ms returns 0x00000000
T0B08 2090:010.860 JLINK_ReadReg(FPS11)
T0B08 2090:010.870 - 0.014ms returns 0x00000000
T0B08 2090:010.881 JLINK_ReadReg(FPS12)
T0B08 2090:010.891 - 0.015ms returns 0x00000000
T0B08 2090:010.903 JLINK_ReadReg(FPS13)
T0B08 2090:010.912 - 0.014ms returns 0x00000000
T0B08 2090:010.924 JLINK_ReadReg(FPS14)
T0B08 2090:010.934 - 0.014ms returns 0x00000000
T0B08 2090:010.945 JLINK_ReadReg(FPS15)
T0B08 2090:010.955 - 0.014ms returns 0x00000000
T0B08 2090:010.967 JLINK_ReadReg(FPS16)
T0B08 2090:010.977 - 0.014ms returns 0x00000000
T0B08 2090:010.988 JLINK_ReadReg(FPS17)
T0B08 2090:010.998 - 0.014ms returns 0x00000000
T0B08 2090:011.010 JLINK_ReadReg(FPS18)
T0B08 2090:011.020 - 0.014ms returns 0x00000000
T0B08 2090:011.031 JLINK_ReadReg(FPS19)
T0B08 2090:011.041 - 0.014ms returns 0x00000000
T0B08 2090:011.052 JLINK_ReadReg(FPS20)
T0B08 2090:011.062 - 0.014ms returns 0x00000000
T0B08 2090:011.074 JLINK_ReadReg(FPS21)
T0B08 2090:011.084 - 0.014ms returns 0x00000000
T0B08 2090:011.095 JLINK_ReadReg(FPS22)
T0B08 2090:011.105 - 0.014ms returns 0x00000000
T0B08 2090:011.117 JLINK_ReadReg(FPS23)
T0B08 2090:011.127 - 0.014ms returns 0x00000000
T0B08 2090:011.138 JLINK_ReadReg(FPS24)
T0B08 2090:011.148 - 0.014ms returns 0x00000000
T0B08 2090:011.160 JLINK_ReadReg(FPS25)
T0B08 2090:011.170 - 0.014ms returns 0x00000000
T0B08 2090:011.181 JLINK_ReadReg(FPS26)
T0B08 2090:011.191 - 0.014ms returns 0x00000000
T0B08 2090:011.207 JLINK_ReadReg(FPS27)
T0B08 2090:011.221 - 0.018ms returns 0x00000000
T0B08 2090:011.232 JLINK_ReadReg(FPS28)
T0B08 2090:011.242 - 0.015ms returns 0x00000000
T0B08 2090:011.254 JLINK_ReadReg(FPS29)
T0B08 2090:011.264 - 0.015ms returns 0x00000000
T0B08 2090:011.275 JLINK_ReadReg(FPS30)
T0B08 2090:011.285 - 0.014ms returns 0x00000000
T0B08 2090:011.297 JLINK_ReadReg(FPS31)
T0B08 2090:011.307 - 0.014ms returns 0x00000000
T38B8 2090:012.406   JLINK_ReadMemEx(0x200099C0, 0x0001 Bytes, ..., Flags = 0x02000000)
T38B8 2090:012.436    -- CPU_ReadMem(64 bytes @ 0x200099C0)
T38B8 2090:013.654    -- Updating C cache (64 bytes @ 0x200099C0)
T38B8 2090:013.672    -- Read from C cache (1 bytes @ 0x200099C0)
T38B8 2090:013.687   Data:  00
T38B8 2090:013.702 - 1.302ms returns 0x01
T38B8 2090:017.644   JLINK_ReadMemEx(0x200099C0, 0x0001 Bytes, ..., Flags = 0x02000000)
T38B8 2090:017.672    -- Read from C cache (1 bytes @ 0x200099C0)
T38B8 2090:017.687   Data:  00
T38B8 2090:017.701 - 0.063ms returns 0x01
T38B8 2090:017.732   JLINK_ReadMemEx(0x200059E0, 0x0004 Bytes, ..., Flags = 0x02000000)
T38B8 2090:017.752    -- CPU_ReadMem(64 bytes @ 0x200059C0)
T38B8 2090:018.655    -- Updating C cache (64 bytes @ 0x200059C0)
T38B8 2090:018.673    -- Read from C cache (4 bytes @ 0x200059E0)
T38B8 2090:018.688   Data:  00 00 00 00
T38B8 2090:018.702 - 0.975ms returns 0x04
T38B8 2090:018.766   JLINK_ReadMemEx(0x50000504, 0x0020 Bytes, ..., Flags = 0x02000004)
T38B8 2090:018.787    -- CPU_ReadMem(32 bytes @ 0x50000504)
T38B8 2090:019.602   Data:  00 00 00 00 00 00 00 00 00 00 00 00 00 00 20 00 ...
T38B8 2090:019.619 - 0.858ms returns 0x20
T38B8 2090:019.634   JLINK_ReadMemEx(0x50000524, 0x0004 Bytes, ..., Flags = 0x02000004)
T38B8 2090:019.652    -- CPU_ReadMem(4 bytes @ 0x50000524)
T38B8 2090:020.002   Data:  00 00 00 00
T38B8 2090:020.018 - 0.389ms returns 0x04
T38B8 2090:020.034   JLINK_ReadMemEx(0x50000700, 0x007C Bytes, ..., Flags = 0x02000004)
T38B8 2090:020.051    -- CPU_ReadMem(124 bytes @ 0x50000700)
T38B8 2090:021.711   Data:  02 00 00 00 02 00 00 00 02 00 00 00 02 00 00 00 ...
T38B8 2090:021.727 - 1.699ms returns 0x7C
T38B8 2090:021.746   JLINK_ReadMemEx(0x5000077C, 0x0004 Bytes, ..., Flags = 0x02000004)
T38B8 2090:021.764    -- CPU_ReadMem(4 bytes @ 0x5000077C)
T38B8 2090:022.583   Data:  02 00 00 00
T38B8 2090:022.600 - 0.859ms returns 0x04
T38B8 2090:023.573   JLINK_ReadMemEx(0x40023010, 0x0004 Bytes, ..., Flags = 0x02000004)
T38B8 2090:023.596    -- CPU_ReadMem(4 bytes @ 0x40023010)
T38B8 2090:024.003   Data:  00 00 00 00
T38B8 2090:024.020 - 0.453ms returns 0x04
T38B8 2090:024.036   JLINK_ReadMemEx(0x40023014, 0x0004 Bytes, ..., Flags = 0x02000004)
T38B8 2090:024.054    -- CPU_ReadMem(4 bytes @ 0x40023014)
T38B8 2090:025.004   Data:  00 00 00 00
T38B8 2090:025.021 - 0.991ms returns 0x04
T38B8 2090:025.036   JLINK_ReadMemEx(0x4002301C, 0x0004 Bytes, ..., Flags = 0x02000004)
T38B8 2090:025.054    -- CPU_ReadMem(4 bytes @ 0x4002301C)
T38B8 2090:026.005   Data:  00 00 00 00
T38B8 2090:026.022 - 0.991ms returns 0x04
T38B8 2090:026.038   JLINK_ReadMemEx(0x40023020, 0x0004 Bytes, ..., Flags = 0x02000004)
T38B8 2090:026.056    -- CPU_ReadMem(4 bytes @ 0x40023020)
T38B8 2090:027.003   Data:  00 00 00 00
T38B8 2090:027.020 - 0.987ms returns 0x04
T38B8 2090:027.035   JLINK_ReadMemEx(0x40023104, 0x0004 Bytes, ..., Flags = 0x02000004)
T38B8 2090:027.053    -- CPU_ReadMem(4 bytes @ 0x40023104)
T38B8 2090:028.008   Data:  00 00 00 00
T38B8 2090:028.025 - 0.995ms returns 0x04
T38B8 2090:028.040   JLINK_ReadMemEx(0x40023110, 0x0004 Bytes, ..., Flags = 0x02000004)
T38B8 2090:028.057    -- CPU_ReadMem(4 bytes @ 0x40023110)
T38B8 2090:029.004   Data:  00 00 00 00
T38B8 2090:029.020 - 0.986ms returns 0x04
T38B8 2090:029.035   JLINK_ReadMemEx(0x40023118, 0x0004 Bytes, ..., Flags = 0x02000004)
T38B8 2090:029.053    -- CPU_ReadMem(4 bytes @ 0x40023118)
T38B8 2090:030.004   Data:  00 00 00 00
T38B8 2090:030.021 - 0.991ms returns 0x04
T38B8 2090:030.036   JLINK_ReadMemEx(0x40023120, 0x0004 Bytes, ..., Flags = 0x02000004)
T38B8 2090:030.061    -- CPU_ReadMem(4 bytes @ 0x40023120)
T38B8 2090:031.004   Data:  00 00 00 00
T38B8 2090:031.020 - 0.990ms returns 0x04
T38B8 2090:031.035   JLINK_ReadMemEx(0x4002314C, 0x0004 Bytes, ..., Flags = 0x02000004)
T38B8 2090:031.053    -- CPU_ReadMem(4 bytes @ 0x4002314C)
T38B8 2090:032.003   Data:  00 00 00 00
T38B8 2090:032.019 - 0.989ms returns 0x04
T38B8 2090:032.034   JLINK_ReadMemEx(0x40023200, 0x0004 Bytes, ..., Flags = 0x02000004)
T38B8 2090:032.051    -- CPU_ReadMem(4 bytes @ 0x40023200)
T38B8 2090:033.010   Data:  00 00 00 00
T38B8 2090:033.027 - 0.999ms returns 0x04
T38B8 2090:033.042   JLINK_ReadMemEx(0x40023304, 0x0004 Bytes, ..., Flags = 0x02000004)
T38B8 2090:033.060    -- CPU_ReadMem(4 bytes @ 0x40023304)
T38B8 2090:034.004   Data:  00 00 00 00
T38B8 2090:034.023 - 0.985ms returns 0x04
T38B8 2090:034.038   JLINK_ReadMemEx(0x40023308, 0x0004 Bytes, ..., Flags = 0x02000004)
T38B8 2090:034.057    -- CPU_ReadMem(4 bytes @ 0x40023308)
T38B8 2090:035.007   Data:  00 00 00 00
T38B8 2090:035.024 - 0.991ms returns 0x04
T38B8 2090:035.039   JLINK_ReadMemEx(0x40023500, 0x0004 Bytes, ..., Flags = 0x02000004)
T38B8 2090:035.057    -- CPU_ReadMem(4 bytes @ 0x40023500)
T38B8 2090:036.005   Data:  00 00 00 00
T38B8 2090:036.021 - 0.988ms returns 0x04
T38B8 2090:036.037   JLINK_ReadMemEx(0x40023508, 0x0008 Bytes, ..., Flags = 0x02000004)
T38B8 2090:036.054    -- CPU_ReadMem(8 bytes @ 0x40023508)
T38B8 2090:037.007   Data:  FF FF FF FF FF FF FF FF
T38B8 2090:037.023 - 0.991ms returns 0x08
T38B8 2090:037.038   JLINK_ReadMemEx(0x40023510, 0x0004 Bytes, ..., Flags = 0x02000004)
